VERSION
8

COMMSETTINGS
0
COM5
COM5
115200
2
63
4
0
0

COMMDISPLAY
0

VERSATAP
0

CHANNELALIAS



SEND
0
read 5000
01 03 50 00 00 01 95 0A
0
5

SEND
1
read 5002
01 03 50 02 00 01 34 CA
0
5

SEND
2
read 5004
01 03 50 04 00 01 D4 CB
0
5

SEND
3
read 5006
01 03 50 06 00 01 75 0B
0
5

SEND
4
write 5000
01 06 50 00 00 32 19 1F
0
5

SEND
5
write 5006
01 06 50 06 00 32 F9 1E
0
5

SEND
6
READ 10 REG
01 03 50 00 00 0A D4 CD
1
10

SEND
7
WRITE 5002
01 06 50 02 00 25 F8 D1
0
5

SEND
8
WRITE 5004
01 06 50 04 00 25 18 D0
0
5

SEND
9

02 06 50 04 00 14 D9 37
0
5

